time	V(n001)	I(R1)
0.000000000000000e+00	0.000000e+00	0.000000e+00
2.623573184903733e-07	-2.890026e-07	-3.569871e-09
5.247146369807466e-07	5.014024e-08	-1.325161e-08
7.870719554711199e-07	1.017429e-06	-2.904523e-08
1.049429273961493e-06	2.612862e-06	-5.095072e-08
1.311786592451867e-06	4.836442e-06	-7.896807e-08
1.574143910942240e-06	7.688166e-06	-1.130973e-07
1.836501229432612e-06	1.116804e-05	-1.533384e-07
2.324782479432613e-06	2.167466e-05	-2.410700e-07
2.813063729432613e-06	3.702113e-05	-3.449603e-07
3.301344979432613e-06	5.790954e-05	-4.624748e-07
3.789626229432613e-06	8.490666e-05	-5.907689e-07
4.766188729432613e-06	1.587530e-04	-8.671875e-07
5.742751229432614e-06	2.600148e-04	-1.147996e-06
6.231032479432614e-06	3.206720e-04	-1.281741e-06
6.719313729432615e-06	3.875615e-04	-1.406818e-06
7.207594979432615e-06	4.601623e-04	-1.520310e-06
7.695876229432616e-06	5.378071e-04	-1.619590e-06
8.184157479432616e-06	6.197444e-04	-1.702381e-06
8.672438729432617e-06	7.050880e-04	-1.766804e-06
9.160719979432617e-06	7.928911e-04	-1.811425e-06
9.649001229432617e-06	8.821644e-04	-1.835286e-06
1.013728247943262e-05	9.718728e-04	-1.837922e-06
1.062556372943262e-05	1.060982e-03	-1.819375e-06
1.111384497943262e-05	1.148460e-03	-1.780184e-06
1.160212622943262e-05	1.233365e-03	-1.721377e-06
1.209040747943262e-05	1.314766e-03	-1.644440e-06
1.257868872943262e-05	1.391859e-03	-1.551278e-06
1.306696997943262e-05	1.463916e-03	-1.444173e-06
1.404353247943262e-05	1.590732e-03	-1.198790e-06
1.550837622943262e-05	1.733035e-03	-7.979761e-07
1.599665747943262e-05	1.767526e-03	-6.682766e-07
1.648493872943262e-05	1.795955e-03	-5.456882e-07
1.697321997943262e-05	1.818716e-03	-4.330747e-07
1.746150122943262e-05	1.836427e-03	-3.330506e-07
1.794978247943262e-05	1.849755e-03	-2.479195e-07
1.843806372943263e-05	1.859519e-03	-1.796223e-07
1.892634497943263e-05	1.866562e-03	-1.296922e-07
1.941462622943263e-05	1.871845e-03	-9.922062e-08
1.990290747943263e-05	1.876331e-03	-8.883391e-08
2.039118872943263e-05	1.881013e-03	-9.868033e-08
2.087946997943263e-05	1.886841e-03	-1.284291e-07
2.136775122943263e-05	1.894809e-03	-1.772805e-07
2.185603247943263e-05	1.905770e-03	-2.439870e-07
2.234431372943263e-05	1.920517e-03	-3.268850e-07
2.283259497943263e-05	1.939807e-03	-4.239360e-07
2.332087622943263e-05	1.964270e-03	-5.327770e-07
2.380915747943263e-05	1.994354e-03	-6.507775e-07
2.527400122943263e-05	2.121131e-03	-1.030785e-06
2.625056372943263e-05	2.236352e-03	-1.275715e-06
2.673884497943263e-05	2.302460e-03	-1.386893e-06
2.722712622943263e-05	2.373632e-03	-1.487025e-06
2.771540747943263e-05	2.449234e-03	-1.573797e-06
2.820368872943263e-05	2.528515e-03	-1.645223e-06
2.869196997943263e-05	2.610738e-03	-1.699687e-06
2.918025122943263e-05	2.694975e-03	-1.735985e-06
2.966853247943264e-05	2.780317e-03	-1.753346e-06
3.015681372943264e-05	2.865891e-03	-1.751451e-06
3.064509497943263e-05	2.950703e-03	-1.730439e-06
3.113337622943263e-05	3.033799e-03	-1.690898e-06
3.162165747943263e-05	3.114409e-03	-1.633854e-06
3.210993872943263e-05	3.191668e-03	-1.560739e-06
3.259821997943263e-05	3.264898e-03	-1.473361e-06
3.308650122943263e-05	3.333391e-03	-1.373854e-06
3.406306372943264e-05	3.454470e-03	-1.148317e-06
3.552790747943264e-05	3.592436e-03	-7.850697e-07
3.601618872943264e-05	3.626784e-03	-6.687899e-07
3.650446997943264e-05	3.655672e-03	-5.595440e-07
3.699275122943264e-05	3.679562e-03	-4.598808e-07
3.748103247943264e-05	3.699025e-03	-3.721102e-07
3.796931372943264e-05	3.714630e-03	-2.982498e-07
3.845759497943264e-05	3.727201e-03	-2.399786e-07
3.894587622943264e-05	3.737479e-03	-1.985988e-07
3.943415747943264e-05	3.746383e-03	-1.750068e-07
3.992243872943264e-05	3.754722e-03	-1.696745e-07
4.041071997943264e-05	3.763457e-03	-1.826393e-07
4.089900122943264e-05	3.773456e-03	-2.135063e-07
4.138728247943264e-05	3.785532e-03	-2.614588e-07
4.187556372943264e-05	3.800487e-03	-3.252804e-07
4.236384497943264e-05	3.819076e-03	-4.033852e-07
4.285212622943264e-05	3.841869e-03	-4.938576e-07
4.334040747943264e-05	3.869430e-03	-5.944984e-07
4.431696997943264e-05	3.940408e-03	-8.163995e-07
4.578181372943265e-05	4.088819e-03	-1.160555e-06
4.675837622943265e-05	4.214463e-03	-1.366100e-06
4.724665747943265e-05	4.284227e-03	-1.454279e-06
4.773493872943265e-05	4.357814e-03	-1.529930e-06
4.822321997943265e-05	4.434627e-03	-1.591325e-06
4.871150122943265e-05	4.513934e-03	-1.637082e-06
4.919978247943265e-05	4.594867e-03	-1.666194e-06
4.968806372943265e-05	4.676593e-03	-1.678054e-06
5.017634497943265e-05	4.758338e-03	-1.672465e-06
5.066462622943265e-05	4.839199e-03	-1.649643e-06
5.115290747943265e-05	4.918432e-03	-1.610212e-06
5.164118872943265e-05	4.995160e-03	-1.555185e-06
5.212946997943265e-05	5.068739e-03	-1.485937e-06
5.261775122943265e-05	5.138431e-03	-1.404175e-06
5.359431372943265e-05	5.264456e-03	-1.211324e-06
5.505915747943265e-05	5.414910e-03	-8.846430e-07
5.603571997943266e-05	5.488663e-03	-6.719525e-07
5.652400122943266e-05	5.518145e-03	-5.747373e-07
5.701228247943266e-05	5.543144e-03	-4.866870e-07
5.750056372943266e-05	5.564253e-03	-4.098391e-07
5.798884497943266e-05	5.582090e-03	-3.459564e-07
5.847712622943266e-05	5.597276e-03	-2.964864e-07
5.896540747943266e-05	5.610588e-03	-2.625289e-07
5.945368872943266e-05	5.622821e-03	-2.448117e-07
5.994196997943266e-05	5.634729e-03	-2.436750e-07
6.043025122943266e-05	5.647136e-03	-2.590654e-07
6.091853247943266e-05	5.660867e-03	-2.905389e-07
6.140681372943266e-05	5.676682e-03	-3.372736e-07
6.189509497943266e-05	5.695236e-03	-3.980906e-07
6.238337622943266e-05	5.717196e-03	-4.714837e-07
6.287165747943266e-05	5.743143e-03	-5.556568e-07
6.335993872943266e-05	5.773447e-03	-6.485677e-07
6.433650122943266e-05	5.848588e-03	-8.515033e-07
6.580134497943266e-05	5.999405e-03	-1.162031e-06
6.677790747943266e-05	6.123845e-03	-1.344806e-06
6.726618872943267e-05	6.192204e-03	-1.422304e-06
6.775446997943267e-05	6.263871e-03	-1.488081e-06
6.824275122943267e-05	6.338350e-03	-1.540640e-06
6.873103247943267e-05	6.414938e-03	-1.578801e-06
6.921931372943267e-05	6.492767e-03	-1.601732e-06
6.970759497943267e-05	6.571243e-03	-1.608965e-06
7.019587622943267e-05	6.649469e-03	-1.600404e-06
7.068415747943267e-05	6.726798e-03	-1.576329e-06
7.117243872943267e-05	6.802418e-03	-1.537384e-06
7.166071997943267e-05	6.875650e-03	-1.484561e-06
7.214900122943267e-05	6.945950e-03	-1.419177e-06
7.263728247943267e-05	7.012598e-03	-1.342839e-06
7.361384497943267e-05	7.133439e-03	-1.164936e-06
7.396261730086125e-05	7.172133e-03	-1.093661e-06
7.431138962228981e-05	7.208380e-03	-1.022922e-06
7.466016194371838e-05	7.242182e-03	-9.527182e-07
7.500893426514696e-05	7.273537e-03	-8.830494e-07
7.535770658657554e-05	7.302447e-03	-8.139157e-07
7.570647890800410e-05	7.328910e-03	-7.453172e-07
7.605525122943267e-05	7.352927e-03	-6.772538e-07
7.654353247943267e-05	7.383098e-03	-5.908734e-07
7.703181372943267e-05	7.409187e-03	-5.132237e-07
7.752009497943267e-05	7.431910e-03	-4.460983e-07
7.800837622943267e-05	7.451833e-03	-3.910335e-07
7.849665747943268e-05	7.469501e-03	-3.492726e-07
7.898493872943268e-05	7.485626e-03	-3.217386e-07
7.947321997943268e-05	7.500856e-03	-3.090136e-07
7.996150122943268e-05	7.516092e-03	-3.113267e-07
8.044978247943268e-05	7.531826e-03	-3.285504e-07
8.093806372943268e-05	7.548925e-03	-3.602053e-07
8.142634497943268e-05	7.568144e-03	-4.054730e-07
8.191462622943268e-05	7.589951e-03	-4.632174e-07
8.240290747943268e-05	7.614873e-03	-5.320127e-07
8.289118872943268e-05	7.643532e-03	-6.101789e-07
8.386775122943268e-05	7.713459e-03	-7.868824e-07
8.421652355086126e-05	7.742823e-03	-8.560604e-07
8.456529587228982e-05	7.774486e-03	-9.240402e-07
8.491406819371839e-05	7.808448e-03	-9.908217e-07
8.526284051514697e-05	7.844709e-03	-1.056405e-06
8.561161283657554e-05	7.883268e-03	-1.120790e-06
8.596038515800411e-05	7.924127e-03	-1.183977e-06
8.630915747943268e-05	7.967284e-03	-1.245966e-06
8.679743872943268e-05	8.030744e-03	-1.323312e-06
8.728571997943268e-05	8.097741e-03	-1.391279e-06
8.777400122943268e-05	8.167641e-03	-1.448305e-06
8.826228247943268e-05	8.239926e-03	-1.493095e-06
8.875056372943268e-05	8.313940e-03	-1.524649e-06
8.923884497943268e-05	8.389012e-03	-1.542284e-06
8.972712622943269e-05	8.464399e-03	-1.545652e-06
9.021540747943269e-05	8.539412e-03	-1.534743e-06
9.070368872943269e-05	8.613515e-03	-1.509882e-06
9.119196997943269e-05	8.685911e-03	-1.471725e-06
9.168025122943269e-05	8.756097e-03	-1.421239e-06
9.216853247943269e-05	8.823337e-03	-1.359678e-06
9.314509497943269e-05	8.947509e-03	-1.209583e-06
9.349386730086126e-05	8.988073e-03	-1.147487e-06
9.384263962228983e-05	9.026416e-03	-1.085034e-06
9.419141194371840e-05	9.062539e-03	-1.022222e-06
9.454018426514698e-05	9.096442e-03	-9.590524e-07
9.488895658657555e-05	9.128125e-03	-8.955248e-07
9.523772890800411e-05	9.157588e-03	-8.316391e-07
9.558650122943269e-05	9.184830e-03	-7.673953e-07
9.607478247943269e-05	9.219360e-03	-6.842540e-07
9.656306372943269e-05	9.250204e-03	-6.076195e-07
9.705134497943269e-05	9.277520e-03	-5.392724e-07
9.753962622943269e-05	9.301811e-03	-4.807884e-07
9.802790747943269e-05	9.323656e-03	-4.335025e-07
9.851618872943269e-05	9.343588e-03	-3.984784e-07
9.900446997943269e-05	9.362320e-03	-3.764849e-07
9.949275122943269e-05	9.380386e-03	-3.679788e-07
9.998103247943269e-05	9.398466e-03	-3.730959e-07
1.004693137294327e-04	9.417366e-03	-3.916493e-07
1.009575949794327e-04	9.437638e-03	-4.231351e-07
1.014458762294327e-04	9.459716e-03	-4.667464e-07
1.019341574794327e-04	9.484447e-03	-5.213934e-07
1.024224387294327e-04	9.512101e-03	-5.857303e-07
1.029107199794327e-04	9.543256e-03	-6.581894e-07
1.038872824794327e-04	9.617005e-03	-8.203216e-07
1.042360548008613e-04	9.647374e-03	-8.832855e-07
1.045848271222898e-04	9.679810e-03	-9.449399e-07
1.049335994437184e-04	9.714314e-03	-1.005285e-06
1.052823717651470e-04	9.750885e-03	-1.064320e-06
1.056311440865756e-04	9.789524e-03	-1.122045e-06
1.059799164080041e-04	9.830229e-03	-1.178461e-06
1.063286887294327e-04	9.873002e-03	-1.233567e-06
1.068169699794327e-04	9.935593e-03	-1.301871e-06
1.073052512294327e-04	1.000118e-02	-1.361345e-06
1.077935324794327e-04	1.006940e-02	-1.410627e-06
1.082818137294327e-04	1.013963e-02	-1.448600e-06
1.087700949794327e-04	1.021121e-02	-1.474422e-06
1.092583762294327e-04	1.028365e-02	-1.487541e-06
1.097466574794327e-04	1.035623e-02	-1.487708e-06
1.102349387294327e-04	1.042847e-02	-1.474982e-06
1.107232199794327e-04	1.049963e-02	-1.449727e-06
1.112115012294327e-04	1.056909e-02	-1.412599e-06
1.116997824794327e-04	1.063647e-02	-1.364535e-06
1.126763449794327e-04	1.076268e-02	-1.240580e-06
1.136529074794327e-04	1.087507e-02	-1.089859e-06
1.140016798008613e-04	1.091142e-02	-1.030489e-06
1.143504521222898e-04	1.094578e-02	-9.719906e-07
1.146992244437184e-04	1.097816e-02	-9.143641e-07
1.150479967651470e-04	1.100855e-02	-8.576092e-07
1.153967690865756e-04	1.103697e-02	-8.017262e-07
1.157455414080041e-04	1.106340e-02	-7.467148e-07
1.160943137294327e-04	1.108785e-02	-6.925753e-07
1.165825949794327e-04	1.111928e-02	-6.246969e-07
1.170708762294327e-04	1.114776e-02	-5.646592e-07
1.175591574794327e-04	1.117356e-02	-5.138438e-07
1.180474387294327e-04	1.119727e-02	-4.734074e-07
1.185357199794327e-04	1.121937e-02	-4.442557e-07
1.190240012294327e-04	1.124044e-02	-4.270234e-07
1.195122824794327e-04	1.126115e-02	-4.220601e-07
1.200005637294327e-04	1.128205e-02	-4.294238e-07
1.204888449794327e-04	1.130364e-02	-4.488806e-07
1.209771262294327e-04	1.132662e-02	-4.799120e-07
1.214654074794327e-04	1.135148e-02	-5.217282e-07
1.219536887294327e-04	1.137873e-02	-5.732883e-07
1.224419699794327e-04	1.140882e-02	-6.333261e-07
1.234185324794327e-04	1.147868e-02	-7.728336e-07
1.238370592651470e-04	1.151319e-02	-8.407787e-07
1.242555860508613e-04	1.155039e-02	-9.073919e-07
1.246741128365756e-04	1.159028e-02	-9.726731e-07
1.250926396222899e-04	1.163286e-02	-1.036622e-06
1.255111664080041e-04	1.167814e-02	-1.099240e-06
1.259296931937184e-04	1.172611e-02	-1.160525e-06
1.263482199794327e-04	1.177678e-02	-1.220479e-06
1.273247824794327e-04	1.190274e-02	-1.332603e-06
1.278130637294327e-04	1.196939e-02	-1.375044e-06
1.283013449794327e-04	1.203752e-02	-1.407050e-06
1.287896262294327e-04	1.210698e-02	-1.427916e-06
1.292779074794327e-04	1.217699e-02	-1.437202e-06
1.297661887294327e-04	1.224711e-02	-1.434744e-06
1.302544699794327e-04	1.231657e-02	-1.420658e-06
1.307427512294327e-04	1.238513e-02	-1.395332e-06
1.312310324794327e-04	1.245207e-02	-1.359421e-06
1.322075949794327e-04	1.257923e-02	-1.259666e-06
1.331841574794327e-04	1.269480e-02	-1.131120e-06
1.336026842651470e-04	1.274014e-02	-1.067468e-06
1.340212110508613e-04	1.278290e-02	-1.004593e-06
1.344397378365756e-04	1.282309e-02	-9.424970e-07
1.348582646222899e-04	1.286070e-02	-8.811792e-07
1.352767914080041e-04	1.289573e-02	-8.206396e-07
1.356953181937184e-04	1.292819e-02	-7.608782e-07
1.361138449794327e-04	1.295808e-02	-7.018951e-07
1.366021262294327e-04	1.299021e-02	-6.418736e-07
1.370904074794327e-04	1.301981e-02	-5.892481e-07
1.375786887294327e-04	1.304707e-02	-5.452271e-07
1.380669699794327e-04	1.307247e-02	-5.108096e-07
1.385552512294327e-04	1.309659e-02	-4.867630e-07
1.390435324794327e-04	1.311993e-02	-4.736055e-07
1.395318137294327e-04	1.314297e-02	-4.715954e-07
1.400200949794327e-04	1.316639e-02	-4.807263e-07
1.405083762294327e-04	1.319048e-02	-5.007283e-07
1.409966574794327e-04	1.321594e-02	-5.310760e-07
1.414849387294327e-04	1.324321e-02	-5.710015e-07
1.419732199794327e-04	1.327292e-02	-6.195145e-07
1.424615012294327e-04	1.330500e-02	-6.754266e-07
1.434380637294327e-04	1.337845e-02	-8.038801e-07
1.438565905151470e-04	1.341402e-02	-8.658731e-07
1.442751173008613e-04	1.345204e-02	-9.263958e-07
1.446936440865756e-04	1.349249e-02	-9.854483e-07
1.451121708722899e-04	1.353538e-02	-1.043031e-06
1.455306976580041e-04	1.358071e-02	-1.099143e-06
1.459492244437184e-04	1.362848e-02	-1.153784e-06
1.463677512294327e-04	1.367869e-02	-1.206956e-06
1.473443137294327e-04	1.380250e-02	-1.305127e-06
1.478325949794327e-04	1.386754e-02	-1.341536e-06
1.483208762294327e-04	1.393387e-02	-1.368330e-06
1.488091574794327e-04	1.400140e-02	-1.384925e-06
1.492974387294327e-04	1.406908e-02	-1.390976e-06
1.497857199794327e-04	1.413694e-02	-1.386392e-06
1.502740012294327e-04	1.420411e-02	-1.371332e-06
1.507622824794327e-04	1.427029e-02	-1.346203e-06
1.512505637294327e-04	1.433469e-02	-1.311648e-06
1.522271262294327e-04	1.445743e-02	-1.217910e-06
1.532036887294327e-04	1.456959e-02	-1.099237e-06
1.536222155151470e-04	1.461381e-02	-1.041032e-06
1.540407423008613e-04	1.465568e-02	-9.837869e-07
1.544592690865756e-04	1.469521e-02	-9.274999e-07
1.548777958722899e-04	1.473240e-02	-8.721717e-07
1.552963226580042e-04	1.476726e-02	-8.178021e-07
1.557148494437185e-04	1.479977e-02	-7.643912e-07
1.561333762294327e-04	1.482994e-02	-7.119389e-07
1.566216574794327e-04	1.486284e-02	-6.589585e-07
1.571099387294327e-04	1.489345e-02	-6.129354e-07
1.575982199794327e-04	1.492209e-02	-5.749243e-07
1.580865012294327e-04	1.494915e-02	-5.457849e-07
1.585747824794327e-04	1.497507e-02	-5.261632e-07
1.590630637294327e-04	1.500054e-02	-5.164771e-07
1.595513449794327e-04	1.502563e-02	-5.169074e-07
1.600396262294327e-04	1.505123e-02	-5.273949e-07
1.605279074794327e-04	1.507779e-02	-5.476430e-07
1.610161887294327e-04	1.510545e-02	-5.771257e-07
1.615044699794327e-04	1.513501e-02	-6.151011e-07
1.619927512294327e-04	1.516654e-02	-6.606303e-07
1.629693137294327e-04	1.523743e-02	-7.697508e-07
1.633878405151470e-04	1.527131e-02	-8.241850e-07
1.638063673008613e-04	1.530742e-02	-8.781303e-07
1.642248940865756e-04	1.534576e-02	-9.315865e-07
1.646434208722899e-04	1.538632e-02	-9.845538e-07
1.650619476580042e-04	1.542912e-02	-1.037032e-06
1.654804744437185e-04	1.547414e-02	-1.089021e-06
1.658990012294327e-04	1.552138e-02	-1.140522e-06
1.668755637294327e-04	1.563891e-02	-1.239715e-06
1.678521262294327e-04	1.576434e-02	-1.310062e-06
1.683404074794327e-04	1.582905e-02	-1.332317e-06
1.688286887294327e-04	1.589464e-02	-1.345245e-06
1.693169699794327e-04	1.596037e-02	-1.348584e-06
1.698052512294327e-04	1.602580e-02	-1.342303e-06
1.702935324794327e-04	1.609097e-02	-1.326596e-06
1.712700949794327e-04	1.621720e-02	-1.268785e-06
1.722466574794327e-04	1.633617e-02	-1.180918e-06
1.737115012294327e-04	1.649547e-02	-1.011980e-06
1.741300280151470e-04	1.653600e-02	-9.576453e-07
1.745485548008613e-04	1.657451e-02	-9.054134e-07
1.749670815865756e-04	1.661102e-02	-8.552843e-07
1.753856083722899e-04	1.664551e-02	-8.072580e-07
1.758041351580042e-04	1.667800e-02	-7.613344e-07
1.762226619437185e-04	1.670849e-02	-7.175137e-07
1.766411887294327e-04	1.673696e-02	-6.757958e-07
1.771294699794327e-04	1.676839e-02	-6.356454e-07
1.776177512294327e-04	1.679849e-02	-6.029409e-07
1.781060324794328e-04	1.682700e-02	-5.784193e-07
1.785943137294328e-04	1.685476e-02	-5.626209e-07
1.790825949794328e-04	1.688200e-02	-5.558768e-07
1.795708762294328e-04	1.690908e-02	-5.583027e-07
1.800591574794328e-04	1.693690e-02	-5.697968e-07
1.805474387294328e-04	1.696541e-02	-5.900434e-07
1.810357199794328e-04	1.699512e-02	-6.185214e-07
1.815240012294328e-04	1.702662e-02	-6.545176e-07
1.820122824794328e-04	1.706005e-02	-6.971446e-07
1.829888449794328e-04	1.713399e-02	-7.980036e-07
1.834073717651470e-04	1.716892e-02	-8.478262e-07
1.838258985508613e-04	1.720588e-02	-8.969865e-07
1.842444253365756e-04	1.724484e-02	-9.454843e-07
1.846629521222899e-04	1.728583e-02	-9.933198e-07
1.850814789080042e-04	1.732883e-02	-1.040493e-06
1.855000056937185e-04	1.737385e-02	-1.087004e-06
1.859185324794328e-04	1.742089e-02	-1.132852e-06
1.868950949794328e-04	1.753676e-02	-1.220161e-06
1.878716574794328e-04	1.765972e-02	-1.280571e-06
1.883599387294328e-04	1.772298e-02	-1.298883e-06
1.888482199794328e-04	1.778661e-02	-1.308675e-06
1.893365012294328e-04	1.785061e-02	-1.309759e-06
1.903130637294328e-04	1.797725e-02	-1.286071e-06
1.912896262294328e-04	1.809973e-02	-1.230374e-06
1.922661887294328e-04	1.821529e-02	-1.148200e-06
1.937310324794328e-04	1.837083e-02	-9.931914e-07
1.951958762294328e-04	1.850256e-02	-8.298213e-07
1.961724387294328e-04	1.857774e-02	-7.333063e-07
1.966607199794328e-04	1.861237e-02	-6.922606e-07
1.971490012294328e-04	1.864485e-02	-6.573258e-07
1.976372824794328e-04	1.867604e-02	-6.292982e-07
1.981255637294328e-04	1.870614e-02	-6.088071e-07
1.986138449794328e-04	1.873536e-02	-5.963004e-07
1.991021262294328e-04	1.876425e-02	-5.920350e-07
1.995904074794328e-04	1.879333e-02	-5.960720e-07
2.000786887294328e-04	1.882289e-02	-6.082756e-07
2.005669699794328e-04	1.885316e-02	-6.283178e-07
2.010552512294328e-04	1.888471e-02	-6.556867e-07
2.015435324794328e-04	1.891801e-02	-6.896997e-07
2.025200949794328e-04	1.899025e-02	-7.741794e-07
2.029386217651470e-04	1.902391e-02	-8.174336e-07
2.033571485508613e-04	1.905941e-02	-8.607863e-07
2.037756753365756e-04	1.909677e-02	-9.042374e-07
2.041942021222899e-04	1.913599e-02	-9.477869e-07
2.046127289080042e-04	1.917705e-02	-9.914347e-07
2.050312556937185e-04	1.921996e-02	-1.035181e-06
2.054497824794328e-04	1.926473e-02	-1.079026e-06
2.064263449794328e-04	1.937530e-02	-1.165734e-06
2.074029074794328e-04	1.949312e-02	-1.230650e-06
2.083794699794328e-04	1.961565e-02	-1.267896e-06
2.093560324794328e-04	1.974002e-02	-1.274246e-06
2.103325949794328e-04	1.986307e-02	-1.249402e-06
2.113091574794328e-04	1.998226e-02	-1.195996e-06
2.122857199794328e-04	2.009453e-02	-1.119312e-06
2.127740012294328e-04	2.014769e-02	-1.071576e-06
2.132622824794328e-04	2.019848e-02	-1.023841e-06
2.137505637294328e-04	2.024688e-02	-9.761057e-07
2.142388449794328e-04	2.029291e-02	-9.283709e-07
2.147271262294328e-04	2.033655e-02	-8.806364e-07
2.152154074794328e-04	2.037782e-02	-8.329023e-07
2.157036887294328e-04	2.041670e-02	-7.851686e-07
2.166802512294328e-04	2.048877e-02	-7.082538e-07
2.171685324794328e-04	2.052234e-02	-6.779438e-07
2.176568137294328e-04	2.055462e-02	-6.540304e-07
2.181450949794328e-04	2.058598e-02	-6.370478e-07
2.186333762294328e-04	2.061657e-02	-6.273642e-07
2.191216574794328e-04	2.064718e-02	-6.251730e-07
