time	V(n001)	I(R1)
0.000000000000000e+00	1.000000e+00	0.000000e+00
9.999999439624929e-11	9.931142e-01	0.000000e+00
3.999999775849972e-10	9.931142e-01	0.000000e+00
7.999999551699943e-10	9.958737e-01	0.000000e+00
1.599999910339989e-09	1.002397e+00	2.220446e-17
3.199999820679977e-09	9.997225e-01	0.000000e+00
6.399999641359955e-09	1.000000e+00	0.000000e+00
1.279999928271991e-08	9.995146e-01	1.110223e-17
2.559999856543982e-08	9.999861e-01	1.110223e-17
5.119999713087964e-08	1.000014e+00	0.000000e+00
1.023999942617593e-07	9.999584e-01	-1.110223e-17
2.047999885235186e-07	9.999861e-01	1.110223e-17
4.095999770470371e-07	1.000007e+00	0.000000e+00
8.191999540940742e-07	9.999861e-01	0.000000e+00
3.276799816376297e-06	1.000016e+00	0.000000e+00
1.753828545196614e-05	1.000006e+00	-3.675432e-18
3.179977108755599e-05	9.999981e-01	-6.125720e-18
4.606125672314583e-05	9.999926e-01	-7.350864e-18
6.032274235873568e-05	9.999893e-01	-7.350864e-18
7.458422799432553e-05	9.999881e-01	-6.125720e-18
8.884571362991537e-05	9.999891e-01	-3.675432e-18
1.031071992655052e-04	9.999922e-01	0.000000e+00
1.169490279418616e-04	9.999905e-01	-2.716333e-18
1.307908566182180e-04	9.999899e-01	-4.527221e-18
1.446326852945744e-04	9.999905e-01	-5.432666e-18
1.584745139709308e-04	9.999922e-01	-5.432666e-18
1.723163426472872e-04	9.999951e-01	-4.527221e-18
1.861581713236436e-04	9.999991e-01	-2.716333e-18
2.000000000000000e-04	1.000004e+00	0.000000e+00
2.000276974878298e-04	9.999445e-01	3.834536e-09
2.000830924634893e-04	9.999306e-01	1.916911e-08
2.001448313554948e-04	1.000000e+00	5.431454e-08
2.002054838054372e-04	1.000000e+00	1.073514e-07
2.003267887053222e-04	9.999722e-01	2.683080e-07
2.005693985050921e-04	9.999792e-01	8.082338e-07
2.010546181046319e-04	9.998508e-01	2.740920e-06
2.020250573037115e-04	9.992194e-01	9.758370e-06
2.035194249397630e-04	9.962600e-01	2.708105e-05
2.051856514094928e-04	9.894704e-01	5.146885e-05
2.071350189123961e-04	9.765585e-01	7.840438e-05
2.091711244314189e-04	9.586724e-01	9.546963e-05
2.115356860983358e-04	9.363238e-01	9.374449e-05
2.144872221711471e-04	9.133559e-01	6.392992e-05
2.159775512585379e-04	9.056375e-01	4.255458e-05
2.171913406582853e-04	9.016282e-01	2.623083e-05
2.184066315023203e-04	8.993515e-01	1.344239e-05
2.195532512118314e-04	8.982823e-01	6.232977e-06
2.206541763166392e-04	8.977036e-01	4.596450e-06
2.218255637994488e-04	8.968817e-01	8.690256e-06
2.235348460946520e-04	8.939676e-01	2.377344e-05
2.255058403683280e-04	8.865156e-01	4.909144e-05
2.274625402046600e-04	8.742038e-01	7.412700e-05
2.296157506413259e-04	8.562470e-01	9.120531e-05
2.319139229417604e-04	8.353997e-01	9.039028e-05
2.349138549744469e-04	8.125689e-01	6.354314e-05
2.363957759922850e-04	8.047753e-01	4.420375e-05
2.376886985593819e-04	8.002453e-01	2.833503e-05
2.390008433950441e-04	7.974586e-01	1.597726e-05
2.402954144754868e-04	7.958963e-01	9.399029e-06
2.403930121837203e-04	7.958144e-01	9.181113e-06
2.405882076001873e-04	7.956479e-01	8.823732e-06
2.409785984331213e-04	7.952954e-01	8.581046e-06
2.417102412016631e-04	7.946085e-01	9.804624e-06
2.431735267387469e-04	7.924981e-01	1.821860e-05
2.452074456647491e-04	7.864121e-01	3.935626e-05
2.471318835388826e-04	7.763281e-01	6.287161e-05
2.493474619229967e-04	7.599047e-01	8.352404e-05
2.515405008406018e-04	7.409061e-01	8.928653e-05
2.542903166774710e-04	7.186482e-01	7.375263e-05
2.559351966779102e-04	7.081820e-01	5.562221e-05
2.574280109954028e-04	7.013776e-01	3.798766e-05
2.588609536258887e-04	6.970902e-01	2.360319e-05
2.602694899767231e-04	6.944894e-01	1.462992e-05
2.618655585674879e-04	6.923392e-01	1.265196e-05
2.633955410799244e-04	6.898429e-01	1.915160e-05
2.652516169468816e-04	6.846096e-01	3.556543e-05
2.672723307858383e-04	6.749437e-01	5.795097e-05
2.694557128018146e-04	6.598953e-01	7.809360e-05
2.717172713848090e-04	6.412435e-01	8.599586e-05
2.743539859474182e-04	6.201170e-01	7.507920e-05
2.764122666714437e-04	6.068963e-01	5.536206e-05
2.779034943472631e-04	5.999903e-01	3.930437e-05
2.793405266893679e-04	5.954195e-01	2.611164e-05
2.808572188752033e-04	5.922035e-01	1.748143e-05
2.825518496973155e-04	5.893487e-01	1.630042e-05
2.843078985220835e-04	5.856911e-01	2.450481e-05
2.861638424282344e-04	5.794710e-01	4.076289e-05
2.882081122442144e-04	5.688201e-01	6.136588e-05
2.904739483818759e-04	5.528113e-01	7.842193e-05
2.928208746359869e-04	5.339283e-01	8.220574e-05
2.956676949669619e-04	5.128665e-01	6.688642e-05
2.973304455555862e-04	5.031996e-01	5.114153e-05
2.988806255073280e-04	4.965774e-01	3.629294e-05
3.004504107939552e-04	4.919136e-01	2.463605e-05
3.021265298614216e-04	4.883228e-01	1.887319e-05
3.038990896874840e-04	4.847083e-01	2.167110e-05
3.064506673873242e-04	4.768364e-01	3.863069e-05
3.087100032150502e-04	4.655854e-01	5.921936e-05
3.112159267777676e-04	4.484218e-01	7.630954e-05
3.135356595313715e-04	4.303583e-01	7.925863e-05
3.164833033010125e-04	4.093561e-01	6.423700e-05
3.181545801674179e-04	3.999844e-01	4.964148e-05
3.197488402729408e-04	3.932974e-01	3.593614e-05
3.214030960463573e-04	3.883182e-01	2.550367e-05
3.233696927792930e-04	3.837430e-01	2.150330e-05
3.252184519215834e-04	3.792102e-01	2.695051e-05
3.273483764128194e-04	3.717535e-01	4.164741e-05
3.294769857721658e-04	3.608163e-01	5.942709e-05
3.319809719839333e-04	3.439072e-01	7.447402e-05
3.343683113993815e-04	3.258865e-01	7.631528e-05
3.374557838008867e-04	3.048867e-01	6.072312e-05
3.391120569747150e-04	2.960782e-01	4.731274e-05
3.407436405017478e-04	2.894951e-01	3.495008e-05
3.425047677498146e-04	2.842011e-01	2.608802e-05
3.445200531548954e-04	2.791257e-01	2.452376e-05
3.466316911762981e-04	2.729810e-01	3.282276e-05
3.486501851113832e-04	2.647748e-01	4.711612e-05
3.508180562786749e-04	2.526659e-01	6.312953e-05
3.533438076287591e-04	2.352157e-01	7.410479e-05
3.559042222439939e-04	2.165917e-01	7.160994e-05
3.594625894802654e-04	1.949876e-01	5.098807e-05
3.614013765614404e-04	1.865634e-01	3.728902e-05
3.630532086049765e-04	1.811679e-01	2.903463e-05
3.652436512884940e-04	1.751026e-01	2.657677e-05
3.673060073298158e-04	1.688393e-01	3.347747e-05
3.694681706564321e-04	1.599850e-01	4.720048e-05
3.717052362477593e-04	1.475893e-01	6.223340e-05
3.743313696664956e-04	1.298340e-01	7.222543e-05
3.769347123354678e-04	1.114668e-01	6.914207e-05
3.806788268260475e-04	8.959220e-02	4.878376e-05
3.827524918331041e-04	8.092858e-02	3.600752e-05
3.845146846670703e-04	7.523263e-02	2.939635e-05
3.867371637289834e-04	6.867506e-02	2.958258e-05
3.891429059990242e-04	6.025417e-02	3.960310e-05
3.911976063729799e-04	5.065533e-02	5.256039e-05
3.934895314751275e-04	3.702282e-02	6.529674e-05
3.961499322806847e-04	1.887287e-02	7.074029e-05
3.986903277229923e-04	1.794809e-03	6.422221e-05
4.000000000000000e-04	-6.080581e-03	5.712745e-05
4.002673708449681e-04	-7.533946e-03	5.511304e-05
4.008021125349041e-04	-1.030577e-02	5.034309e-05
4.018715959147762e-04	-1.483670e-02	3.689819e-05
4.033707247277451e-04	-1.826038e-02	1.208962e-05
4.043406434867218e-04	-1.839354e-02	-5.686048e-06
4.054712099987946e-04	-1.644034e-02	-2.537702e-05
4.067677845422044e-04	-1.178103e-02	-4.367271e-05
4.084872004421261e-04	-3.048467e-03	-5.642173e-05
4.098106766183231e-04	4.353072e-03	-5.555834e-05
4.111671330785081e-04	1.107517e-02	-4.509452e-05
4.125931976704960e-04	1.593969e-02	-2.583215e-05
4.137914173262227e-04	1.762884e-02	-5.720861e-06
4.148436370399180e-04	1.708720e-02	1.254369e-05
4.158724802399768e-04	1.478898e-02	2.894166e-05
4.174094102080216e-04	8.768874e-03	4.704520e-05
4.188370267459110e-04	1.458553e-03	5.434553e-05
4.200905223933909e-04	-5.183944e-03	5.201055e-05
4.213703933515853e-04	-1.107105e-02	4.160838e-05
4.228871900808041e-04	-1.564294e-02	2.134852e-05
4.239997321731753e-04	-1.683242e-02	3.283304e-06
4.250848812764051e-04	-1.604252e-02	-1.455393e-05
4.261757694697298e-04	-1.341800e-02	-3.062294e-05
4.277665253879046e-04	-7.086207e-03	-4.693134e-05
4.291515743520493e-04	-1.868419e-04	-5.196805e-05
4.303949118155503e-04	6.013080e-03	-4.834595e-05
4.316544027952446e-04	1.130637e-02	-3.743902e-05
4.332523867986600e-04	1.537265e-02	-1.612262e-05
4.342256468755126e-04	1.604480e-02	-8.338200e-07
4.353411937287870e-04	1.499885e-02	1.648169e-05
4.364783725314391e-04	1.209483e-02	3.188691e-05
4.381389396434708e-04	5.444898e-03	4.644982e-05
4.394895732953209e-04	-1.058354e-03	4.941212e-05
4.407295109245860e-04	-6.832849e-03	4.451971e-05
4.419949079643276e-04	-1.161143e-02	3.284998e-05
4.436722599927781e-04	-1.502478e-02	1.051100e-05
4.446566059765828e-04	-1.517885e-02	-4.354354e-06
4.458375217074781e-04	-1.349582e-02	-2.128550e-05
4.471121060789985e-04	-9.693044e-03	-3.606351e-05
4.488606553155000e-04	-2.360509e-03	-4.660162e-05
4.501918819725625e-04	3.771320e-03	-4.566252e-05
4.515530283262836e-04	9.292644e-03	-3.677149e-05
4.529901060063609e-04	1.325095e-02	-2.057292e-05
4.541604031636946e-04	1.454437e-02	-4.308459e-06
4.552184938836420e-04	1.404902e-02	1.081854e-05
4.562606783335505e-04	1.207588e-02	2.443171e-05
4.578099178341379e-04	6.998311e-03	3.920678e-05
4.592248977205704e-04	9.940587e-04	4.486129e-05
4.604755592601309e-04	-4.459316e-03	4.269428e-05
4.617505036153022e-04	-9.257589e-03	3.394993e-05
4.632836914886199e-04	-1.298513e-02	1.689850e-05
4.643700162013134e-04	-1.388239e-02	2.304979e-06
4.654615389972400e-04	-1.318029e-02	-1.246475e-05
4.665632412193570e-04	-1.094218e-02	-2.575255e-05
4.681672948653391e-04	-5.613518e-03	-3.903062e-05
4.695449360312445e-04	6.492805e-05	-4.285258e-05
4.707862685629771e-04	5.151074e-03	-3.961514e-05
4.720416589241095e-04	9.456883e-03	-3.044567e-05
4.736575661230191e-04	1.274794e-02	-1.250511e-05
4.746080913433330e-04	1.322627e-02	-1.605295e-07
4.757355006145715e-04	1.228983e-02	1.422305e-05
4.768862561712762e-04	9.794790e-03	2.693006e-05
4.785657250216070e-04	4.170071e-03	3.865684e-05
4.799058082872236e-04	-1.165314e-03	4.067009e-05
4.811689886447773e-04	-5.972865e-03	3.616165e-05
4.824564886345458e-04	-9.870033e-03	2.596271e-05
4.841593287965010e-04	-1.248077e-02	6.932832e-06
4.852031261579255e-04	-1.239698e-02	-6.050656e-06
4.862149160988517e-04	-1.106568e-02	-1.792008e-05
4.876243852194018e-04	-7.487432e-03	-3.099494e-05
4.892770302622432e-04	-1.664631e-03	-3.855744e-05
4.905813019719151e-04	3.284852e-03	-3.750075e-05
4.919155704924291e-04	7.724951e-03	-3.015564e-05
4.933744493094780e-04	1.099194e-02	-1.650273e-05
4.945297844847369e-04	1.199872e-02	-3.221877e-06
4.955954122930272e-04	1.154809e-02	9.324017e-06
4.966520023730879e-04	9.852539e-03	2.062973e-05
4.982123725320809e-04	5.574189e-03	3.266525e-05
4.996188393113261e-04	6.294402e-04	3.702773e-05
5.008674909023969e-04	-3.848509e-03	3.501796e-05
5.021380894278905e-04	-7.755796e-03	2.764575e-05
5.036892112791396e-04	-1.078486e-02	1.326627e-05
5.047448669034488e-04	-1.144837e-02	1.530767e-06
5.058433122882326e-04	-1.082256e-02	-1.070111e-05
5.069561266983331e-04	-8.911066e-03	-2.168108e-05
5.085754933997700e-04	-4.418318e-03	-3.247363e-05
5.099451746647108e-04	2.533740e-04	-3.532591e-05
5.111834128461255e-04	4.419527e-03	-3.243279e-05
5.124343713418402e-04	7.916964e-03	-2.471656e-05
5.140697003545355e-04	1.057149e-02	-9.599101e-06
5.150008399793394e-04	1.090013e-02	3.974690e-07
5.161448387841064e-04	1.004919e-02	1.238050e-05
5.173123474018721e-04	7.887810e-03	2.285143e-05
5.190145536178775e-04	3.108071e-03	3.221010e-05
5.203411993750350e-04	-1.258737e-03	3.343675e-05
5.217455389861988e-04	-5.569743e-03	2.864195e-05
5.230368005701468e-04	-8.586776e-03	1.950209e-05
5.244556586267294e-04	-1.027097e-02	6.123958e-06
5.254431532318251e-04	-1.027326e-02	-4.019704e-06
5.264750235973948e-04	-9.238585e-03	-1.408655e-05
5.278383426562866e-04	-6.480655e-03	-2.480155e-05
5.294980733151158e-04	-1.730488e-03	-3.161556e-05
5.308053925548701e-04	2.371096e-03	-3.119680e-05
5.321484950178846e-04	6.121086e-03	-2.549381e-05
5.335710598687545e-04	8.882069e-03	-1.482231e-05
5.347909262603726e-04	9.877991e-03	-3.380054e-06
5.358400841208539e-04	9.594337e-03	6.834684e-06
5.368609155439779e-04	8.338071e-03	1.598769e-05
5.383899380420444e-04	5.011198e-03	2.619328e-05
5.398382741788710e-04	8.667141e-04	3.044982e-05
5.410961109655233e-04	-2.871474e-03	2.918895e-05
5.423808603937410e-04	-6.189351e-03	2.336843e-05
5.438913723166081e-04	-8.754010e-03	1.208229e-05
5.450091140973347e-04	-9.434707e-03	1.917135e-06
5.460921655199830e-04	-9.001934e-03	-8.066757e-06
5.471795512069682e-04	-7.545663e-03	-1.706348e-05
5.487668466016242e-04	-4.017139e-03	-2.624011e-05
5.501541845187914e-04	-1.473884e-04	-2.912881e-05
5.513981180812574e-04	3.332950e-03	-2.714743e-05
5.526588185312183e-04	6.311425e-03	-2.106802e-05
5.542516639255589e-04	8.602563e-03	-9.190170e-06
5.552341315761516e-04	8.994367e-03	-5.459956e-07
5.563478793102889e-04	8.418278e-03	9.150594e-06
5.574827058891634e-04	6.803256e-03	1.778748e-05
5.591386702613616e-04	3.097075e-03	2.598483e-05
5.604912752437454e-04	-5.512841e-04	2.770653e-05
5.617262387603116e-04	-3.780958e-03	2.503138e-05
5.629866905679556e-04	-6.464597e-03	1.857433e-05
5.646587191526771e-04	-8.406533e-03	6.141829e-06
5.656307047442248e-04	-8.521461e-03	-2.085059e-06
5.668478240361522e-04	-7.573584e-03	-1.187987e-05
5.680974649959182e-04	-5.497072e-03	-2.004674e-05
5.698670933267134e-04	-1.352750e-03	-2.610756e-05
5.712042253172901e-04	2.099841e-03	-2.560805e-05
5.725710694753031e-04	5.208699e-03	-2.061321e-05
5.740050421110586e-04	7.424715e-03	-1.155529e-05
5.751757078544607e-04	8.152537e-03	-2.437535e-06
5.762328830364086e-04	7.877498e-03	6.035702e-06
5.772733964381955e-04	6.776591e-03	1.365960e-05
5.788216296693533e-04	3.936852e-03	2.195304e-05
5.802375734714580e-04	5.705741e-04	2.514415e-05
5.814884632386987e-04	-2.487643e-03	2.394508e-05
5.827638815372413e-04	-5.180813e-03	1.905471e-05
5.842952148323112e-04	-7.273479e-03	9.518884e-06
5.853846563458055e-04	-7.781573e-03	1.318114e-06
5.864754547515342e-04	-7.391186e-03	-6.957215e-06
5.875759536976197e-04	-6.141562e-03	-1.440363e-05
5.891784480097021e-04	-3.161519e-03	-2.185762e-05
5.905569426970979e-04	2.229899e-05	-2.402129e-05
5.917985206608650e-04	2.875048e-03	-2.222260e-05
5.930543933615475e-04	5.292658e-03	-1.709378e-05
5.946682403158016e-04	7.141414e-03	-7.060507e-06
5.956206720562445e-04	7.414408e-03	-1.288280e-07
5.967463034671202e-04	6.895080e-03	7.924773e-06
5.978951376580142e-04	5.504402e-03	1.504719e-05
5.995722312300725e-04	2.361694e-03	2.164318e-05
6.009138034584107e-04	-6.313467e-04	2.280384e-05
6.021739144709352e-04	-3.322977e-03	2.031236e-05
6.034585868458733e-04	-5.511239e-03	1.463779e-05
6.051580066045701e-04	-6.990017e-03	4.015376e-06
6.061937891466389e-04	-6.959648e-03	-3.208938e-06
6.072279993912807e-04	-6.207480e-03	-1.001763e-05
6.086176521704459e-04	-4.238398e-03	-1.727572e-05
6.102827811968461e-04	-9.583646e-04	-2.160237e-05
6.115905864442496e-04	1.824151e-03	-2.103619e-05
6.129284578284374e-04	4.322391e-03	-1.692456e-05
6.143837262072375e-04	6.154459e-03	-9.301298e-06
6.155423289769683e-04	6.725333e-03	-1.840112e-06
6.166066473889572e-04	6.476820e-03	5.185526e-06
6.176607337675508e-04	5.533500e-03	1.151548e-05
6.192190029438115e-04	3.144605e-03	1.827678e-05
6.206269927117629e-04	3.721744e-04	2.075253e-05
6.218760240803156e-04	-2.139885e-03	1.964854e-05
6.231474194212026e-04	-4.335078e-03	1.553234e-05
6.246952900097158e-04	-6.037773e-03	7.504326e-06
6.257565269707849e-04	-6.417401e-03	8.953778e-07
6.268537327618034e-04	-6.071382e-03	-5.955928e-06
6.279646102076357e-04	-5.006324e-03	-1.210884e-05
6.295811865699870e-04	-2.497867e-03	-1.817442e-05
6.309522978979969e-04	1.219509e-04	-1.980326e-05
6.321912413964400e-04	2.460335e-03	-1.820356e-05
6.334429991620490e-04	4.426229e-03	-1.389342e-05
6.350749127827998e-04	5.920254e-03	-5.451259e-06
6.360096255745644e-04	6.110763e-03	1.714436e-07
6.371507397928831e-04	5.641446e-03	6.876739e-06
6.383154863914782e-04	4.439937e-03	1.274787e-05
6.400136645169310e-04	1.774292e-03	1.802427e-05
6.413426205358324e-04	-6.767862e-04	1.875353e-05
6.427482879909839e-04	-3.099827e-03	1.609919e-05
6.440347510952393e-04	-4.793543e-03	1.102192e-05
6.454629174286723e-04	-5.754368e-03	3.489736e-06
6.464480475056975e-04	-5.762155e-03	-2.182938e-06
6.474926058346264e-04	-5.178540e-03	-7.897002e-06
6.488459479024215e-04	-3.646033e-03	-1.386830e-05
6.505130828279599e-04	-9.744280e-04	-1.771972e-05
6.518224462683152e-04	1.328266e-03	-1.748806e-05
6.531674268740919e-04	3.433039e-03	-1.428614e-05
6.545893525506325e-04	4.979298e-03	-8.305238e-06
6.558084675475145e-04	5.536937e-03	-1.894893e-06
6.568575032334372e-04	5.378246e-03	3.830355e-06
6.578781787253941e-04	4.674259e-03	8.960480e-06
6.594072476712273e-04	2.809435e-03	1.468193e-05
6.608558087560959e-04	4.859180e-04	1.706866e-05
6.621137044325372e-04	-1.609641e-03	1.636189e-05
6.633985129749458e-04	-3.469560e-03	1.309898e-05
6.649090014492009e-04	-4.907181e-03	6.772538e-06
6.660267061761821e-04	-5.288664e-03	1.074621e-06
6.671097542869022e-04	-5.045953e-03	-4.521843e-06
6.681971370184807e-04	-4.229739e-03	-9.564952e-06
6.697844383608902e-04	-2.251724e-03	-1.470893e-05
6.711717959880072e-04	-8.258265e-05	-1.632819e-05
6.724157497285657e-04	1.868368e-03	-1.521744e-05
6.736764680645933e-04	3.537941e-03	-1.180949e-05
6.752693224193233e-04	4.822212e-03	-5.151226e-06
6.762517498637145e-04	5.041826e-03	-3.059073e-07
6.773655025924692e-04	4.718754e-03	5.129540e-06
6.785003359531471e-04	3.813545e-03	9.970952e-06
6.801563172775585e-04	1.735996e-03	1.456592e-05
6.815089356394836e-04	-3.091315e-04	1.553090e-05
6.827439237759020e-04	-2.119588e-03	1.403117e-05
6.840044026935928e-04	-3.623937e-03	1.041143e-05
6.856764522725573e-04	-4.712272e-03	3.442152e-06
6.866484952435043e-04	-4.776689e-03	-1.169716e-06
6.878654434828757e-04	-4.245315e-03	-6.659404e-06
6.891151988833843e-04	-3.081239e-03	-1.123766e-05
6.908847270910802e-04	-7.581930e-04	-1.463466e-05
6.922218512062767e-04	1.177104e-03	-1.435457e-05
6.935886866032732e-04	2.919765e-03	-1.155466e-05
6.950226763977182e-04	4.161920e-03	-6.477127e-06
6.961933213701884e-04	4.569901e-03	-1.366234e-06
6.972505034802739e-04	4.415775e-03	3.383474e-06
6.982910311718783e-04	3.798536e-03	7.657090e-06
6.998392762134823e-04	2.206715e-03	1.230594e-05
7.012552336139920e-04	3.197446e-04	1.409460e-05
7.025061451881722e-04	-1.394590e-03	1.342231e-05
7.037815803153009e-04	-2.904340e-03	1.068082e-05
7.053129411627506e-04	-4.077097e-03	5.335266e-06
7.064023107114745e-04	-4.362098e-03	7.385815e-07
7.074931219715396e-04	-4.143218e-03	-3.900201e-06
7.085936431204573e-04	-3.442499e-03	-8.074318e-06
7.101961693942420e-04	-1.772046e-03	-1.225255e-05
7.115746708675274e-04	1.268508e-05	-1.346516e-05
7.128162687626284e-04	1.611832e-03	-1.245665e-05
7.140721542705246e-04	2.966987e-03	-9.581439e-06
7.156860495274717e-04	4.003067e-03	-3.956920e-06
7.166384165128560e-04	4.156174e-03	-7.158993e-08
7.177640975439931e-04	3.864942e-03	4.443007e-06
7.189129855387378e-04	3.085226e-03	8.435494e-06
7.205901487035836e-04	1.323466e-03	1.213253e-05
7.219317028795215e-04	-3.542805e-04	1.278262e-05
7.231919107736992e-04	-1.863114e-03	1.138539e-05
7.244766764253537e-04	-3.089739e-03	8.203745e-06
7.261761972755949e-04	-3.918278e-03	2.248570e-06
7.272122279739972e-04	-3.900938e-03	-1.801962e-06
7.282457397896832e-04	-3.479471e-03	-5.615872e-06
7.296359994563010e-04	-2.375184e-03	-9.685627e-06
7.313007385120060e-04	-5.367657e-04	-1.210942e-05
7.326084575887611e-04	1.022827e-03	-1.179159e-05
7.339462389251627e-04	2.423092e-03	-9.486642e-06
7.354016204964603e-04	3.449991e-03	-5.212854e-06
7.365601017801021e-04	3.769876e-03	-1.030828e-06
7.376244631354978e-04	3.630571e-03	2.907529e-06
7.386786331644807e-04	3.101564e-03	6.455934e-06
7.402369745769375e-04	1.762341e-03	1.024571e-05
7.416449404127700e-04	2.082324e-04	1.163293e-05
7.428939882730957e-04	-1.199909e-03	1.101359e-05
7.441653828565104e-04	-2.430361e-03	8.705805e-06
7.457133744884245e-04	-3.384703e-03	4.204969e-06
7.467743720022114e-04	-3.597273e-03	5.010526e-07
7.478716266208701e-04	-3.403132e-03	-3.339570e-06
7.489825815553462e-04	-2.806090e-03	-6.788636e-06
7.505992728517743e-04	-1.399759e-03	-1.018835e-05
